<Qucs Dataset 0.0.18>
<indep dtime 8>
  +0.00000000000e+00
  +1.00000000000e-09
  +2.00000000000e-09
  +3.00000000000e-09
  +4.00000000000e-09
  +5.00000000000e-09
  +6.00000000000e-09
  +7.00000000000e-09
</indep>
<dep _net0.X dtime>
  0
  1
  0
  1
  0
  1
  0
  1
</dep>
<dep _net1.X dtime>
  0
  0
  1
  1
  0
  0
  1
  1
</dep>
<dep _net2.X dtime>
  0
  0
  0
  0
  1
  1
  1
  1
</dep>
<dep _net3.X dtime>
  0
  0
  0
  1
  0
  0
  0
  1
</dep>
<dep output.X dtime>
  0
  0
  0
  0
  0
  0
  0
  1
</dep>
